 frequency       db(v(Z))        ph(v(Z))       
 1.00000000e+00 -1.67337012e+00 -3.50991546e-02 
 1.07177346e+00 -1.67416529e+00 -3.76160463e-02 
 1.14869835e+00 -1.67507852e+00 -4.03130539e-02 
 1.23114441e+00 -1.67612730e+00 -4.32029827e-02 
 1.31950791e+00 -1.67733172e+00 -4.62995290e-02 
 1.41421356e+00 -1.67871483e+00 -4.96173374e-02 
 1.51571657e+00 -1.68030306e+00 -5.31720612e-02 
 1.62450479e+00 -1.68212674e+00 -5.69804247e-02 
 1.74110113e+00 -1.68422066e+00 -6.10602886e-02 
 1.86606598e+00 -1.68662469e+00 -6.54307164e-02 
 2.00000000e+00 -1.68938455e+00 -7.01120433e-02 
 2.14354693e+00 -1.69255264e+00 -7.51259449e-02 
 2.29739671e+00 -1.69618897e+00 -8.04955068e-02 
 2.46228883e+00 -1.70036226e+00 -8.62452928e-02 
 2.63901582e+00 -1.70515117e+00 -9.24014107e-02 
 2.82842712e+00 -1.71064567e+00 -9.89915737e-02 
 3.03143313e+00 -1.71694863e+00 -1.06045156e-01 
 3.24900959e+00 -1.72417756e+00 -1.13593240e-01 
 3.48220225e+00 -1.73246660e+00 -1.21668646e-01 
 3.73213197e+00 -1.74196872e+00 -1.30305956e-01 
 4.00000000e+00 -1.75285819e+00 -1.39541505e-01 
 4.28709385e+00 -1.76533330e+00 -1.49413352e-01 
 4.59479342e+00 -1.77961936e+00 -1.59961211e-01 
 4.92457765e+00 -1.79597195e+00 -1.71226350e-01 
 5.27803164e+00 -1.81468046e+00 -1.83251425e-01 
 5.65685425e+00 -1.83607191e+00 -1.96080261e-01 
 6.06286627e+00 -1.86051490e+00 -2.09757556e-01 
 6.49801917e+00 -1.88842380e+00 -2.24328491e-01 
 6.96440451e+00 -1.92026291e+00 -2.39838253e-01 
 7.46426393e+00 -1.95655068e+00 -2.56331421e-01 
 8.00000000e+00 -1.99786361e+00 -2.73851240e-01 
 8.57418770e+00 -2.04483971e+00 -2.92438741e-01 
 9.18958684e+00 -2.09818136e+00 -3.12131711e-01 
 9.84915531e+00 -2.15865705e+00 -3.32963510e-01 
 1.05560633e+01 -2.22710176e+00 -3.54961724e-01 
 1.13137085e+01 -2.30441549e+00 -3.78146689e-01 
 1.21257325e+01 -2.39155964e+00 -4.02529894e-01 
 1.29960383e+01 -2.48955049e+00 -4.28112305e-01 
 1.39288090e+01 -2.59944973e+00 -4.54882688e-01 
 1.49285279e+01 -2.72235138e+00 -4.82815990e-01 
 1.60000000e+01 -2.85936521e+00 -5.11871887e-01 
 1.71483754e+01 -3.01159651e+00 -5.41993608e-01 
 1.83791737e+01 -3.18012257e+00 -5.73107154e-01 
 1.96983106e+01 -3.36596662e+00 -6.05121038e-01 
 2.11121266e+01 -3.57007012e+00 -6.37926636e-01 
 2.26274170e+01 -3.79326474e+00 -6.71399245e-01 
 2.42514651e+01 -4.03624562e+00 -7.05399857e-01 
 2.59920767e+01 -4.29954757e+00 -7.39777640e-01 
 2.78576180e+01 -4.58352591e+00 -7.74373044e-01 
 2.98570557e+01 -4.88834324e+00 -8.09021384e-01 
 3.20000000e+01 -5.21396334e+00 -8.43556714e-01 
 3.42967508e+01 -5.56015252e+00 -8.77815778e-01 
 3.67583474e+01 -5.92648840e+00 -9.11641799e-01 
 3.93966212e+01 -6.31237545e+00 -9.44887914e-01 
 4.22242531e+01 -6.71706600e+00 -9.77420059e-01 
 4.52548340e+01 -7.13968531e+00 -1.00911921e+00 
 4.85029301e+01 -7.57925898e+00 -1.03988288e+00 
 5.19841534e+01 -8.03474098e+00 -1.06962593e+00 
 5.57152361e+01 -8.50504097e+00 -1.09828068e+00 
 5.97141115e+01 -8.98904947e+00 -1.12579646e+00 
 6.40000000e+01 -9.48566028e+00 -1.15213864e+00 
 6.85935016e+01 -9.99378939e+00 -1.17728738e+00 
 7.35166947e+01 -1.05123903e+01 -1.20123607e+00 
 7.87932425e+01 -1.10404657e+01 -1.22398969e+00 
 8.44485063e+01 -1.15770759e+01 -1.24556315e+00 
 9.05096680e+01 -1.21213442e+01 -1.26597961e+00 
 9.70058603e+01 -1.26724598e+01 -1.28526892e+00 
 1.03968307e+02 -1.32296783e+01 -1.30346620e+00 
 1.11430472e+02 -1.37923209e+01 -1.32061057e+00 
 1.19428223e+02 -1.43597723e+01 -1.33674397e+00 
 1.28000000e+02 -1.49314776e+01 -1.35191024e+00 
 1.37187003e+02 -1.55069384e+01 -1.36615427e+00 
 1.47033389e+02 -1.60857091e+01 -1.37952132e+00 
 1.57586485e+02 -1.66673924e+01 -1.39205648e+00 
 1.68897013e+02 -1.72516353e+01 -1.40380416e+00 
 1.81019336e+02 -1.78381248e+01 -1.41480782e+00 
 1.94011721e+02 -1.84265844e+01 -1.42510965e+00 
 2.07936613e+02 -1.90167697e+01 -1.43475040e+00 
 2.22860944e+02 -1.96084657e+01 -1.44376920e+00 
 2.38856446e+02 -2.02014831e+01 -1.45220352e+00 
 2.56000000e+02 -2.07956557e+01 -1.46008908e+00 
 2.74374006e+02 -2.13908377e+01 -1.46745986e+00 
 2.94066779e+02 -2.19869011e+01 -1.47434806e+00 
 3.15172970e+02 -2.25837341e+01 -1.48078417e+00 
 3.37794025e+02 -2.31812386e+01 -1.48679700e+00 
 3.62038672e+02 -2.37793288e+01 -1.49241369e+00 
 3.88023441e+02 -2.43779301e+01 -1.49765984e+00 
 4.15873227e+02 -2.49769768e+01 -1.50255950e+00 
 4.45721888e+02 -2.55764118e+01 -1.50713528e+00 
 4.77712892e+02 -2.61761854e+01 -1.51140840e+00 
 5.12000000e+02 -2.67762540e+01 -1.51539879e+00 
 5.48748013e+02 -2.73765797e+01 -1.51912511e+00 
 5.88133558e+02 -2.79771293e+01 -1.52260486e+00 
 6.30345940e+02 -2.85778740e+01 -1.52585444e+00 
 6.75588050e+02 -2.91787887e+01 -1.52888919e+00 
 7.24077344e+02 -2.97798514e+01 -1.53172348e+00 
 7.76046882e+02 -3.03810430e+01 -1.53437075e+00 
 8.31746454e+02 -3.09823470e+01 -1.53684357e+00 
 8.91443777e+02 -3.15837487e+01 -1.53915371e+00 
 9.55425783e+02 -3.21852356e+01 -1.54131219e+00 
 1.02400000e+03 -3.27867967e+01 -1.54332929e+00 
 1.09749603e+03 -3.33884224e+01 -1.54521465e+00 
 1.17626712e+03 -3.39901043e+01 -1.54697727e+00 
 1.26069188e+03 -3.45918352e+01 -1.54862559e+00 
 1.35117610e+03 -3.51936087e+01 -1.55016750e+00 
 1.44815469e+03 -3.57954194e+01 -1.55161038e+00 
 1.55209376e+03 -3.63972625e+01 -1.55296114e+00 
 1.66349291e+03 -3.69991338e+01 -1.55422625e+00 
 1.78288755e+03 -3.76010296e+01 -1.55541178e+00 
 1.91085157e+03 -3.82029468e+01 -1.55652343e+00 
 2.04800000e+03 -3.88048827e+01 -1.55756651e+00 
 2.19499205e+03 -3.94068348e+01 -1.55854604e+00 
 2.35253423e+03 -4.00088012e+01 -1.55946671e+00 
 2.52138376e+03 -4.06107799e+01 -1.56033296e+00 
 2.70235220e+03 -4.12127695e+01 -1.56114893e+00 
 2.89630938e+03 -4.18147685e+01 -1.56191854e+00 
 3.10418753e+03 -4.24167758e+01 -1.56264550e+00 
 3.32698582e+03 -4.30187905e+01 -1.56333329e+00 
 3.56577511e+03 -4.36208115e+01 -1.56398522e+00 
 3.82170313e+03 -4.42228382e+01 -1.56460441e+00 
 4.09600000e+03 -4.48248699e+01 -1.56519385e+00 
 4.38998410e+03 -4.54269062e+01 -1.56575637e+00 
 4.70506846e+03 -4.60289464e+01 -1.56629467e+00 
 5.04276752e+03 -4.66309903e+01 -1.56681133e+00 
 5.40470440e+03 -4.72330375e+01 -1.56730884e+00 
 5.79261875e+03 -4.78350878e+01 -1.56778959e+00 
 6.20837506e+03 -4.84371410e+01 -1.56825589e+00 
 6.65397163e+03 -4.90391969e+01 -1.56870998e+00 
 7.13155021e+03 -4.96412556e+01 -1.56915404e+00 
 7.64340627e+03 -5.02433169e+01 -1.56959021e+00 
 8.19200000e+03 -5.08453809e+01 -1.57002058e+00 
 8.77996821e+03 -5.14474477e+01 -1.57044722e+00 
 9.41013692e+03 -5.20495174e+01 -1.57087218e+00 
 1.00855350e+04 -5.26515901e+01 -1.57129751e+00 
 1.08094088e+04 -5.32536662e+01 -1.57172524e+00 
 1.15852375e+04 -5.38557460e+01 -1.57215744e+00 
 1.24167501e+04 -5.44578297e+01 -1.57259618e+00 
 1.33079433e+04 -5.50599180e+01 -1.57304356e+00 
 1.42631004e+04 -5.56620112e+01 -1.57350175e+00 
 1.52868125e+04 -5.62641101e+01 -1.57397293e+00 
 1.63840000e+04 -5.68662155e+01 -1.57445937e+00 
 1.75599364e+04 -5.74683281e+01 -1.57496341e+00 
 1.88202738e+04 -5.80704490e+01 -1.57548747e+00 
 2.01710701e+04 -5.86725794e+01 -1.57603407e+00 
 2.16188176e+04 -5.92747206e+01 -1.57660583e+00 
 2.31704750e+04 -5.98768742e+01 -1.57720549e+00 
 2.48335002e+04 -6.04790420e+01 -1.57783594e+00 
 2.66158865e+04 -6.10812261e+01 -1.57850020e+00 
 2.85262009e+04 -6.16834288e+01 -1.57920146e+00 
 3.05736251e+04 -6.22856530e+01 -1.57994307e+00 
 3.27680000e+04 -6.28879017e+01 -1.58072860e+00 
 3.51198728e+04 -6.34901785e+01 -1.58156181e+00 
 3.76405477e+04 -6.40924878e+01 -1.58244669e+00 
 4.03421401e+04 -6.46948342e+01 -1.58338747e+00 
 4.32376352e+04 -6.52972233e+01 -1.58438866e+00 
 4.63409500e+04 -6.58996615e+01 -1.58545505e+00 
 4.96670005e+04 -6.65021559e+01 -1.58659172e+00 
 5.32317730e+04 -6.71047150e+01 -1.58780410e+00 
 5.70524017e+04 -6.77073483e+01 -1.58909797e+00 
 6.11472501e+04 -6.83100669e+01 -1.59047950e+00 
 6.55360000e+04 -6.89128836e+01 -1.59195523e+00 
 7.02397456e+04 -6.95158128e+01 -1.59353219e+00 
 7.52810954e+04 -7.01188712e+01 -1.59521783e+00 
 8.06842803e+04 -7.07220781e+01 -1.59702013e+00 
 8.64752704e+04 -7.13254557e+01 -1.59894757e+00 
 9.26819000e+04 -7.19290291e+01 -1.60100922e+00 
 9.93340009e+04 -7.25328277e+01 -1.60321472e+00 
 1.06463546e+05 -7.31368847e+01 -1.60557436e+00 
 1.14104803e+05 -7.37412388e+01 -1.60809909e+00 
 1.22294500e+05 -7.43459340e+01 -1.61080056e+00 
 1.31072000e+05 -7.49510210e+01 -1.61369117e+00 
 1.40479491e+05 -7.55565582e+01 -1.61678409e+00 
 1.50562191e+05 -7.61626124e+01 -1.62009326e+00 
 1.61368561e+05 -7.67692605e+01 -1.62363349e+00 
 1.72950541e+05 -7.73765908e+01 -1.62742042e+00 
 1.85363800e+05 -7.79847048e+01 -1.63147054e+00 
 1.98668002e+05 -7.85937187e+01 -1.63580123e+00 
 2.12927092e+05 -7.92037665e+01 -1.64043069e+00 
 2.28209607e+05 -7.98150017e+01 -1.64537798e+00 
 2.44589001e+05 -8.04276004e+01 -1.65066288e+00 
 2.62144000e+05 -8.10417652e+01 -1.65630587e+00 
 2.80958983e+05 -8.16577283e+01 -1.66232795e+00 
 3.01124382e+05 -8.22757560e+01 -1.66875048e+00 
 3.22737121e+05 -8.28961538e+01 -1.67559489e+00 
 3.45901082e+05 -8.35192720e+01 -1.68288237e+00 
 3.70727600e+05 -8.41455114e+01 -1.69063333e+00 
 3.97336004e+05 -8.47753309e+01 -1.69886683e+00 
 4.25854184e+05 -8.54092545e+01 -1.70759976e+00 
 4.56419214e+05 -8.60478801e+01 -1.71684575e+00 
 4.89178001e+05 -8.66918880e+01 -1.72661379e+00 
 5.24288000e+05 -8.73420503e+01 -1.73690650e+00 
 5.61917965e+05 -8.79992394e+01 -1.74771786e+00 
 6.02248763e+05 -8.86644363e+01 -1.75903033e+00 
 6.45474242e+05 -8.93387364e+01 -1.77081128e+00 
 6.91802164e+05 -9.00233513e+01 -1.78300852e+00 
 7.41455200e+05 -9.07196049e+01 -1.79554481e+00 
 7.94672007e+05 -9.14289190e+01 -1.80831129e+00 
 8.51708369e+05 -9.21527842e+01 -1.82115974e+00 
 9.12838427e+05 -9.28927096e+01 -1.83389386e+00 
 9.78356002e+05 -9.36501431e+01 -1.84625997e+00 
